v1	V(n001)	V(n002)	Id(M1)
Step Information: V2=-400m  (Run: 1/7)
-4.000000000000000e-001	-4.000000e-001	-4.000000e-001	-1.052563e-007
0.000000000000000e+000	0.000000e+000	-4.000000e-001	3.843805e-011
4.000000000000000e-001	4.000000e-001	-4.000000e-001	9.950036e-010
8.000000000000000e-001	8.000000e-001	-4.000000e-001	1.452533e-008
1.200000000000000e+000	1.200000e+000	-4.000000e-001	1.776782e-007
1.600000000000000e+000	1.600000e+000	-4.000000e-001	6.985101e-006
Step Information: V2=-100m  (Run: 2/7)
-4.000000000000000e-001	-4.000000e-001	-1.000000e-001	-3.644312e-005
0.000000000000000e+000	0.000000e+000	-1.000000e-001	5.970342e-013
4.000000000000000e-001	4.000000e-001	-1.000000e-001	2.255027e-010
8.000000000000000e-001	8.000000e-001	-1.000000e-001	2.141697e-009
1.200000000000000e+000	1.200000e+000	-1.000000e-001	2.735766e-008
1.600000000000000e+000	1.600000e+000	-1.000000e-001	3.804988e-007
Step Information: V2=200m  (Run: 3/7)
-4.000000000000000e-001	-4.000000e-001	2.000000e-001	-7.256484e-004
0.000000000000000e+000	0.000000e+000	2.000000e-001	-3.830331e-012
4.000000000000000e-001	4.000000e-001	2.000000e-001	4.535912e-007
8.000000000000000e-001	8.000000e-001	2.000000e-001	4.641522e-007
1.200000000000000e+000	1.200000e+000	2.000000e-001	4.775011e-007
1.600000000000000e+000	1.600000e+000	2.000000e-001	5.334523e-007
Step Information: V2=500m  (Run: 4/7)
-4.000000000000000e-001	-4.000000e-001	5.000000e-001	-1.949572e-003
0.000000000000000e+000	0.000000e+000	5.000000e-001	-1.113935e-009
4.000000000000000e-001	4.000000e-001	5.000000e-001	1.451122e-004
8.000000000000000e-001	8.000000e-001	5.000000e-001	1.471017e-004
1.200000000000000e+000	1.200000e+000	5.000000e-001	1.486825e-004
1.600000000000000e+000	1.600000e+000	5.000000e-001	1.501239e-004
Step Information: V2=800m  (Run: 5/7)
-4.000000000000000e-001	-4.000000e-001	8.000000e-001	-2.961050e-003
0.000000000000000e+000	0.000000e+000	8.000000e-001	-2.239918e-008
4.000000000000000e-001	4.000000e-001	8.000000e-001	1.044789e-003
8.000000000000000e-001	8.000000e-001	8.000000e-001	1.074192e-003
1.200000000000000e+000	1.200000e+000	8.000000e-001	1.084006e-003
1.600000000000000e+000	1.600000e+000	8.000000e-001	1.091858e-003
Step Information: V2=1.1  (Run: 6/7)
-4.000000000000000e-001	-4.000000e-001	1.100000e+000	-3.674953e-003
0.000000000000000e+000	0.000000e+000	1.100000e+000	-1.978480e-007
4.000000000000000e-001	4.000000e-001	1.100000e+000	2.145656e-003
8.000000000000000e-001	8.000000e-001	1.100000e+000	2.475726e-003
1.200000000000000e+000	1.200000e+000	1.100000e+000	2.503858e-003
1.600000000000000e+000	1.600000e+000	1.100000e+000	2.522126e-003
Step Information: V2=1.4  (Run: 7/7)
-4.000000000000000e-001	-4.000000e-001	1.400000e+000	-4.172441e-003
0.000000000000000e+000	0.000000e+000	1.400000e+000	-1.314749e-006
4.000000000000000e-001	4.000000e-001	1.400000e+000	2.971375e-003
8.000000000000000e-001	8.000000e-001	1.400000e+000	4.012418e-003
1.200000000000000e+000	1.200000e+000	1.400000e+000	4.106064e-003
1.600000000000000e+000	1.600000e+000	1.400000e+000	4.139551e-003
