v1	V(n001)	I(D1)
-1.000000000000000e-001	-1.000000e-001	-2.242756e-009
-9.990000000000000e-002	-9.990000e-002	-2.242143e-009
-9.980000000000000e-002	-9.980000e-002	-2.241529e-009
-9.970000000000000e-002	-9.970000e-002	-2.240913e-009
-9.959999999999999e-002	-9.960000e-002	-2.240297e-009
-9.949999999999999e-002	-9.950000e-002	-2.239678e-009
-9.939999999999999e-002	-9.940000e-002	-2.239059e-009
-9.929999999999999e-002	-9.930000e-002	-2.238438e-009
-9.919999999999998e-002	-9.920000e-002	-2.237815e-009
-9.909999999999998e-002	-9.910000e-002	-2.237192e-009
-9.899999999999998e-002	-9.900000e-002	-2.236567e-009
-9.889999999999997e-002	-9.890000e-002	-2.235940e-009
-9.879999999999997e-002	-9.880000e-002	-2.235312e-009
-9.869999999999997e-002	-9.870000e-002	-2.234683e-009
-9.859999999999997e-002	-9.860000e-002	-2.234052e-009
-9.849999999999996e-002	-9.850000e-002	-2.233420e-009
-9.839999999999996e-002	-9.840000e-002	-2.232787e-009
-9.829999999999996e-002	-9.830000e-002	-2.232152e-009
-9.819999999999995e-002	-9.820000e-002	-2.231516e-009
-9.809999999999995e-002	-9.810000e-002	-2.230878e-009
-9.799999999999995e-002	-9.800000e-002	-2.230239e-009
-9.789999999999995e-002	-9.790000e-002	-2.229599e-009
-9.779999999999994e-002	-9.780000e-002	-2.228957e-009
-9.769999999999994e-002	-9.770000e-002	-2.228314e-009
-9.759999999999994e-002	-9.760000e-002	-2.227669e-009
-9.749999999999993e-002	-9.750000e-002	-2.227023e-009
-9.739999999999993e-002	-9.740000e-002	-2.226375e-009
-9.729999999999993e-002	-9.730000e-002	-2.225726e-009
-9.719999999999993e-002	-9.720000e-002	-2.225076e-009
-9.709999999999992e-002	-9.710000e-002	-2.224424e-009
-9.699999999999992e-002	-9.700000e-002	-2.223771e-009
-9.689999999999992e-002	-9.690000e-002	-2.223116e-009
-9.679999999999991e-002	-9.680000e-002	-2.222460e-009
-9.669999999999991e-002	-9.670000e-002	-2.221802e-009
-9.659999999999991e-002	-9.660000e-002	-2.221143e-009
-9.649999999999991e-002	-9.650000e-002	-2.220482e-009
-9.639999999999990e-002	-9.640000e-002	-2.219820e-009
-9.629999999999990e-002	-9.630000e-002	-2.219157e-009
-9.619999999999990e-002	-9.620000e-002	-2.218492e-009
-9.609999999999989e-002	-9.610000e-002	-2.217826e-009
-9.599999999999989e-002	-9.600000e-002	-2.217158e-009
-9.589999999999989e-002	-9.590000e-002	-2.216488e-009
-9.579999999999989e-002	-9.580000e-002	-2.215818e-009
-9.569999999999988e-002	-9.570000e-002	-2.215145e-009
-9.559999999999988e-002	-9.560000e-002	-2.214471e-009
-9.549999999999988e-002	-9.550000e-002	-2.213796e-009
-9.539999999999987e-002	-9.540000e-002	-2.213119e-009
-9.529999999999987e-002	-9.530000e-002	-2.212441e-009
-9.519999999999987e-002	-9.520000e-002	-2.211761e-009
-9.509999999999987e-002	-9.510000e-002	-2.211080e-009
-9.499999999999986e-002	-9.500000e-002	-2.210397e-009
-9.489999999999986e-002	-9.490000e-002	-2.209713e-009
-9.479999999999986e-002	-9.480000e-002	-2.209027e-009
-9.469999999999985e-002	-9.470000e-002	-2.208340e-009
-9.459999999999985e-002	-9.460000e-002	-2.207651e-009
-9.449999999999985e-002	-9.450000e-002	-2.206961e-009
-9.439999999999985e-002	-9.440000e-002	-2.206269e-009
-9.429999999999984e-002	-9.430000e-002	-2.205576e-009
-9.419999999999984e-002	-9.420000e-002	-2.204881e-009
-9.409999999999984e-002	-9.410000e-002	-2.204184e-009
-9.399999999999983e-002	-9.400000e-002	-2.203486e-009
-9.389999999999983e-002	-9.390000e-002	-2.202787e-009
-9.379999999999983e-002	-9.380000e-002	-2.202085e-009
-9.369999999999983e-002	-9.370000e-002	-2.201383e-009
-9.359999999999982e-002	-9.360000e-002	-2.200679e-009
-9.349999999999982e-002	-9.350000e-002	-2.199973e-009
-9.339999999999982e-002	-9.340000e-002	-2.199266e-009
-9.329999999999981e-002	-9.330000e-002	-2.198557e-009
-9.319999999999981e-002	-9.320000e-002	-2.197846e-009
-9.309999999999981e-002	-9.310000e-002	-2.197134e-009
-9.299999999999981e-002	-9.300000e-002	-2.196421e-009
-9.289999999999980e-002	-9.290000e-002	-2.195706e-009
-9.279999999999980e-002	-9.280000e-002	-2.194989e-009
-9.269999999999980e-002	-9.270000e-002	-2.194271e-009
-9.259999999999979e-002	-9.260000e-002	-2.193551e-009
-9.249999999999979e-002	-9.250000e-002	-2.192829e-009
-9.239999999999979e-002	-9.240000e-002	-2.192106e-009
-9.229999999999979e-002	-9.230000e-002	-2.191381e-009
-9.219999999999978e-002	-9.220000e-002	-2.190655e-009
-9.209999999999978e-002	-9.210000e-002	-2.189927e-009
-9.199999999999978e-002	-9.200000e-002	-2.189198e-009
-9.189999999999977e-002	-9.190000e-002	-2.188467e-009
-9.179999999999977e-002	-9.180000e-002	-2.187734e-009
-9.169999999999977e-002	-9.170000e-002	-2.186999e-009
-9.159999999999977e-002	-9.160000e-002	-2.186263e-009
-9.149999999999976e-002	-9.150000e-002	-2.185526e-009
-9.139999999999976e-002	-9.140000e-002	-2.184787e-009
-9.129999999999976e-002	-9.130000e-002	-2.184046e-009
-9.119999999999975e-002	-9.120000e-002	-2.183303e-009
-9.109999999999975e-002	-9.110000e-002	-2.182559e-009
-9.099999999999975e-002	-9.100000e-002	-2.181813e-009
-9.089999999999975e-002	-9.090000e-002	-2.181066e-009
-9.079999999999974e-002	-9.080000e-002	-2.180317e-009
-9.069999999999974e-002	-9.070000e-002	-2.179566e-009
-9.059999999999974e-002	-9.060000e-002	-2.178814e-009
-9.049999999999973e-002	-9.050000e-002	-2.178060e-009
-9.039999999999973e-002	-9.040000e-002	-2.177304e-009
-9.029999999999973e-002	-9.030000e-002	-2.176547e-009
-9.019999999999973e-002	-9.020000e-002	-2.175788e-009
-9.009999999999972e-002	-9.010000e-002	-2.175027e-009
-8.999999999999972e-002	-9.000000e-002	-2.174265e-009
-8.989999999999972e-002	-8.990000e-002	-2.173500e-009
-8.979999999999971e-002	-8.980000e-002	-2.172735e-009
-8.969999999999971e-002	-8.970000e-002	-2.171967e-009
-8.959999999999971e-002	-8.960000e-002	-2.171198e-009
-8.949999999999971e-002	-8.950000e-002	-2.170427e-009
-8.939999999999970e-002	-8.940000e-002	-2.169654e-009
-8.929999999999970e-002	-8.930000e-002	-2.168880e-009
-8.919999999999970e-002	-8.920000e-002	-2.168104e-009
-8.909999999999969e-002	-8.910000e-002	-2.167327e-009
-8.899999999999969e-002	-8.900000e-002	-2.166547e-009
-8.889999999999969e-002	-8.890000e-002	-2.165766e-009
-8.879999999999969e-002	-8.880000e-002	-2.164983e-009
-8.869999999999968e-002	-8.870000e-002	-2.164199e-009
-8.859999999999968e-002	-8.860000e-002	-2.163412e-009
-8.849999999999968e-002	-8.850000e-002	-2.162624e-009
-8.839999999999967e-002	-8.840000e-002	-2.161834e-009
-8.829999999999967e-002	-8.830000e-002	-2.161043e-009
-8.819999999999967e-002	-8.820000e-002	-2.160250e-009
-8.809999999999967e-002	-8.810000e-002	-2.159454e-009
-8.799999999999966e-002	-8.800000e-002	-2.158658e-009
-8.789999999999966e-002	-8.790000e-002	-2.157859e-009
-8.779999999999966e-002	-8.780000e-002	-2.157059e-009
-8.769999999999965e-002	-8.770000e-002	-2.156257e-009
-8.759999999999965e-002	-8.760000e-002	-2.155453e-009
-8.749999999999965e-002	-8.750000e-002	-2.154647e-009
-8.739999999999965e-002	-8.740000e-002	-2.153840e-009
-8.729999999999964e-002	-8.730000e-002	-2.153030e-009
-8.719999999999964e-002	-8.720000e-002	-2.152220e-009
-8.709999999999964e-002	-8.710000e-002	-2.151407e-009
-8.699999999999963e-002	-8.700000e-002	-2.150592e-009
-8.689999999999963e-002	-8.690000e-002	-2.149776e-009
-8.679999999999963e-002	-8.680000e-002	-2.148957e-009
-8.669999999999963e-002	-8.670000e-002	-2.148137e-009
-8.659999999999962e-002	-8.660000e-002	-2.147316e-009
-8.649999999999962e-002	-8.650000e-002	-2.146492e-009
-8.639999999999962e-002	-8.640000e-002	-2.145667e-009
-8.629999999999961e-002	-8.630000e-002	-2.144839e-009
-8.619999999999961e-002	-8.620000e-002	-2.144010e-009
-8.609999999999961e-002	-8.610000e-002	-2.143179e-009
-8.599999999999961e-002	-8.600000e-002	-2.142347e-009
-8.589999999999960e-002	-8.590000e-002	-2.141512e-009
-8.579999999999960e-002	-8.580000e-002	-2.140676e-009
-8.569999999999960e-002	-8.570000e-002	-2.139837e-009
-8.559999999999959e-002	-8.560000e-002	-2.138997e-009
-8.549999999999959e-002	-8.550000e-002	-2.138155e-009
-8.539999999999959e-002	-8.540000e-002	-2.137311e-009
-8.529999999999958e-002	-8.530000e-002	-2.136466e-009
-8.519999999999958e-002	-8.520000e-002	-2.135618e-009
-8.509999999999958e-002	-8.510000e-002	-2.134769e-009
-8.499999999999958e-002	-8.500000e-002	-2.133917e-009
-8.489999999999957e-002	-8.490000e-002	-2.133064e-009
-8.479999999999957e-002	-8.480000e-002	-2.132209e-009
-8.469999999999957e-002	-8.470000e-002	-2.131352e-009
-8.459999999999956e-002	-8.460000e-002	-2.130493e-009
-8.449999999999956e-002	-8.450000e-002	-2.129632e-009
-8.439999999999956e-002	-8.440000e-002	-2.128770e-009
-8.429999999999956e-002	-8.430000e-002	-2.127905e-009
-8.419999999999955e-002	-8.420000e-002	-2.127038e-009
-8.409999999999955e-002	-8.410000e-002	-2.126170e-009
-8.399999999999955e-002	-8.400000e-002	-2.125300e-009
-8.389999999999954e-002	-8.390000e-002	-2.124428e-009
-8.379999999999954e-002	-8.380000e-002	-2.123553e-009
-8.369999999999954e-002	-8.370000e-002	-2.122677e-009
-8.359999999999954e-002	-8.360000e-002	-2.121799e-009
-8.349999999999953e-002	-8.350000e-002	-2.120919e-009
-8.339999999999953e-002	-8.340000e-002	-2.120037e-009
-8.329999999999953e-002	-8.330000e-002	-2.119153e-009
-8.319999999999952e-002	-8.320000e-002	-2.118267e-009
-8.309999999999952e-002	-8.310000e-002	-2.117380e-009
-8.299999999999952e-002	-8.300000e-002	-2.116490e-009
-8.289999999999952e-002	-8.290000e-002	-2.115598e-009
-8.279999999999951e-002	-8.280000e-002	-2.114704e-009
-8.269999999999951e-002	-8.270000e-002	-2.113809e-009
-8.259999999999951e-002	-8.260000e-002	-2.112911e-009
-8.249999999999950e-002	-8.250000e-002	-2.112011e-009
-8.239999999999950e-002	-8.240000e-002	-2.111110e-009
-8.229999999999950e-002	-8.230000e-002	-2.110206e-009
-8.219999999999950e-002	-8.220000e-002	-2.109301e-009
-8.209999999999949e-002	-8.210000e-002	-2.108393e-009
-8.199999999999949e-002	-8.200000e-002	-2.107484e-009
-8.189999999999949e-002	-8.190000e-002	-2.106572e-009
-8.179999999999948e-002	-8.180000e-002	-2.105658e-009
-8.169999999999948e-002	-8.170000e-002	-2.104743e-009
-8.159999999999948e-002	-8.160000e-002	-2.103825e-009
-8.149999999999948e-002	-8.150000e-002	-2.102905e-009
-8.139999999999947e-002	-8.140000e-002	-2.101984e-009
-8.129999999999947e-002	-8.130000e-002	-2.101060e-009
-8.119999999999947e-002	-8.120000e-002	-2.100134e-009
-8.109999999999946e-002	-8.110000e-002	-2.099206e-009
-8.099999999999946e-002	-8.100000e-002	-2.098276e-009
-8.089999999999946e-002	-8.090000e-002	-2.097344e-009
-8.079999999999946e-002	-8.080000e-002	-2.096410e-009
-8.069999999999945e-002	-8.070000e-002	-2.095474e-009
-8.059999999999945e-002	-8.060000e-002	-2.094536e-009
-8.049999999999945e-002	-8.050000e-002	-2.093596e-009
-8.039999999999944e-002	-8.040000e-002	-2.092654e-009
-8.029999999999944e-002	-8.030000e-002	-2.091709e-009
-8.019999999999944e-002	-8.020000e-002	-2.090763e-009
-8.009999999999944e-002	-8.010000e-002	-2.089814e-009
-7.999999999999943e-002	-8.000000e-002	-2.088864e-009
-7.989999999999943e-002	-7.990000e-002	-2.087911e-009
-7.979999999999943e-002	-7.980000e-002	-2.086956e-009
-7.969999999999942e-002	-7.970000e-002	-2.085999e-009
-7.959999999999942e-002	-7.960000e-002	-2.085040e-009
-7.949999999999942e-002	-7.950000e-002	-2.084079e-009
-7.939999999999942e-002	-7.940000e-002	-2.083116e-009
-7.929999999999941e-002	-7.930000e-002	-2.082150e-009
-7.919999999999941e-002	-7.920000e-002	-2.081183e-009
-7.909999999999941e-002	-7.910000e-002	-2.080213e-009
-7.899999999999940e-002	-7.900000e-002	-2.079241e-009
-7.889999999999940e-002	-7.890000e-002	-2.078267e-009
-7.879999999999940e-002	-7.880000e-002	-2.077291e-009
-7.869999999999940e-002	-7.870000e-002	-2.076313e-009
-7.859999999999939e-002	-7.860000e-002	-2.075332e-009
-7.849999999999939e-002	-7.850000e-002	-2.074350e-009
-7.839999999999939e-002	-7.840000e-002	-2.073365e-009
-7.829999999999938e-002	-7.830000e-002	-2.072378e-009
-7.819999999999938e-002	-7.820000e-002	-2.071389e-009
-7.809999999999938e-002	-7.810000e-002	-2.070397e-009
-7.799999999999938e-002	-7.800000e-002	-2.069404e-009
-7.789999999999937e-002	-7.790000e-002	-2.068408e-009
-7.779999999999937e-002	-7.780000e-002	-2.067410e-009
-7.769999999999937e-002	-7.770000e-002	-2.066410e-009
-7.759999999999936e-002	-7.760000e-002	-2.065408e-009
-7.749999999999936e-002	-7.750000e-002	-2.064403e-009
-7.739999999999936e-002	-7.740000e-002	-2.063396e-009
-7.729999999999936e-002	-7.730000e-002	-2.062387e-009
-7.719999999999935e-002	-7.720000e-002	-2.061376e-009
-7.709999999999935e-002	-7.710000e-002	-2.060363e-009
-7.699999999999935e-002	-7.700000e-002	-2.059347e-009
-7.689999999999934e-002	-7.690000e-002	-2.058329e-009
-7.679999999999934e-002	-7.680000e-002	-2.057309e-009
-7.669999999999934e-002	-7.670000e-002	-2.056286e-009
-7.659999999999934e-002	-7.660000e-002	-2.055262e-009
-7.649999999999933e-002	-7.650000e-002	-2.054235e-009
-7.639999999999933e-002	-7.640000e-002	-2.053205e-009
-7.629999999999933e-002	-7.630000e-002	-2.052174e-009
-7.619999999999932e-002	-7.620000e-002	-2.051140e-009
-7.609999999999932e-002	-7.610000e-002	-2.050104e-009
-7.599999999999932e-002	-7.600000e-002	-2.049066e-009
-7.589999999999932e-002	-7.590000e-002	-2.048025e-009
-7.579999999999931e-002	-7.580000e-002	-2.046982e-009
-7.569999999999931e-002	-7.570000e-002	-2.045937e-009
-7.559999999999931e-002	-7.560000e-002	-2.044889e-009
-7.549999999999930e-002	-7.550000e-002	-2.043839e-009
-7.539999999999930e-002	-7.540000e-002	-2.042787e-009
-7.529999999999930e-002	-7.530000e-002	-2.041733e-009
-7.519999999999930e-002	-7.520000e-002	-2.040676e-009
-7.509999999999929e-002	-7.510000e-002	-2.039617e-009
-7.499999999999929e-002	-7.500000e-002	-2.038555e-009
-7.489999999999929e-002	-7.490000e-002	-2.037491e-009
-7.479999999999928e-002	-7.480000e-002	-2.036425e-009
-7.469999999999928e-002	-7.470000e-002	-2.035356e-009
-7.459999999999928e-002	-7.460000e-002	-2.034285e-009
-7.449999999999928e-002	-7.450000e-002	-2.033212e-009
-7.439999999999927e-002	-7.440000e-002	-2.032136e-009
-7.429999999999927e-002	-7.430000e-002	-2.031058e-009
-7.419999999999927e-002	-7.420000e-002	-2.029978e-009
-7.409999999999926e-002	-7.410000e-002	-2.028895e-009
-7.399999999999926e-002	-7.400000e-002	-2.027810e-009
-7.389999999999926e-002	-7.390000e-002	-2.026722e-009
-7.379999999999926e-002	-7.380000e-002	-2.025632e-009
-7.369999999999925e-002	-7.370000e-002	-2.024540e-009
-7.359999999999925e-002	-7.360000e-002	-2.023445e-009
-7.349999999999925e-002	-7.350000e-002	-2.022348e-009
-7.339999999999924e-002	-7.340000e-002	-2.021248e-009
-7.329999999999924e-002	-7.330000e-002	-2.020146e-009
-7.319999999999924e-002	-7.320000e-002	-2.019042e-009
-7.309999999999924e-002	-7.310000e-002	-2.017934e-009
-7.299999999999923e-002	-7.300000e-002	-2.016825e-009
-7.289999999999923e-002	-7.290000e-002	-2.015713e-009
-7.279999999999923e-002	-7.280000e-002	-2.014599e-009
-7.269999999999922e-002	-7.270000e-002	-2.013482e-009
-7.259999999999922e-002	-7.260000e-002	-2.012363e-009
-7.249999999999922e-002	-7.250000e-002	-2.011241e-009
-7.239999999999922e-002	-7.240000e-002	-2.010117e-009
-7.229999999999921e-002	-7.230000e-002	-2.008990e-009
-7.219999999999921e-002	-7.220000e-002	-2.007861e-009
-7.209999999999921e-002	-7.210000e-002	-2.006729e-009
-7.199999999999920e-002	-7.200000e-002	-2.005595e-009
-7.189999999999920e-002	-7.190000e-002	-2.004459e-009
-7.179999999999920e-002	-7.180000e-002	-2.003320e-009
-7.169999999999920e-002	-7.170000e-002	-2.002178e-009
-7.159999999999919e-002	-7.160000e-002	-2.001034e-009
-7.149999999999919e-002	-7.150000e-002	-1.999887e-009
-7.139999999999919e-002	-7.140000e-002	-1.998737e-009
-7.129999999999918e-002	-7.130000e-002	-1.997586e-009
-7.119999999999918e-002	-7.120000e-002	-1.996431e-009
-7.109999999999918e-002	-7.110000e-002	-1.995274e-009
-7.099999999999918e-002	-7.100000e-002	-1.994115e-009
-7.089999999999917e-002	-7.090000e-002	-1.992953e-009
-7.079999999999917e-002	-7.080000e-002	-1.991788e-009
-7.069999999999917e-002	-7.070000e-002	-1.990621e-009
-7.059999999999916e-002	-7.060000e-002	-1.989451e-009
-7.049999999999916e-002	-7.050000e-002	-1.988279e-009
-7.039999999999916e-002	-7.040000e-002	-1.987104e-009
-7.029999999999916e-002	-7.030000e-002	-1.985927e-009
-7.019999999999915e-002	-7.020000e-002	-1.984746e-009
-7.009999999999915e-002	-7.010000e-002	-1.983564e-009
-6.999999999999915e-002	-7.000000e-002	-1.982378e-009
-6.989999999999914e-002	-6.990000e-002	-1.981190e-009
-6.979999999999914e-002	-6.980000e-002	-1.980000e-009
-6.969999999999914e-002	-6.970000e-002	-1.978806e-009
-6.959999999999914e-002	-6.960000e-002	-1.977611e-009
-6.949999999999913e-002	-6.950000e-002	-1.976412e-009
-6.939999999999913e-002	-6.940000e-002	-1.975211e-009
-6.929999999999913e-002	-6.930000e-002	-1.974007e-009
-6.919999999999912e-002	-6.920000e-002	-1.972801e-009
-6.909999999999912e-002	-6.910000e-002	-1.971592e-009
-6.899999999999912e-002	-6.900000e-002	-1.970380e-009
-6.889999999999912e-002	-6.890000e-002	-1.969165e-009
-6.879999999999911e-002	-6.880000e-002	-1.967948e-009
-6.869999999999911e-002	-6.870000e-002	-1.966728e-009
-6.859999999999911e-002	-6.860000e-002	-1.965506e-009
-6.849999999999910e-002	-6.850000e-002	-1.964281e-009
-6.839999999999910e-002	-6.840000e-002	-1.963053e-009
-6.829999999999910e-002	-6.830000e-002	-1.961822e-009
-6.819999999999910e-002	-6.820000e-002	-1.960589e-009
-6.809999999999909e-002	-6.810000e-002	-1.959352e-009
-6.799999999999909e-002	-6.800000e-002	-1.958114e-009
-6.789999999999909e-002	-6.790000e-002	-1.956872e-009
-6.779999999999908e-002	-6.780000e-002	-1.955628e-009
-6.769999999999908e-002	-6.770000e-002	-1.954381e-009
-6.759999999999908e-002	-6.760000e-002	-1.953131e-009
-6.749999999999908e-002	-6.750000e-002	-1.951878e-009
-6.739999999999907e-002	-6.740000e-002	-1.950623e-009
-6.729999999999907e-002	-6.730000e-002	-1.949365e-009
-6.719999999999907e-002	-6.720000e-002	-1.948104e-009
-6.709999999999906e-002	-6.710000e-002	-1.946840e-009
-6.699999999999906e-002	-6.700000e-002	-1.945574e-009
-6.689999999999906e-002	-6.690000e-002	-1.944305e-009
-6.679999999999906e-002	-6.680000e-002	-1.943033e-009
-6.669999999999905e-002	-6.670000e-002	-1.941758e-009
-6.659999999999905e-002	-6.660000e-002	-1.940480e-009
-6.649999999999905e-002	-6.650000e-002	-1.939199e-009
-6.639999999999904e-002	-6.640000e-002	-1.937916e-009
-6.629999999999904e-002	-6.630000e-002	-1.936630e-009
-6.619999999999904e-002	-6.620000e-002	-1.935341e-009
-6.609999999999904e-002	-6.610000e-002	-1.934049e-009
-6.599999999999903e-002	-6.600000e-002	-1.932754e-009
-6.589999999999903e-002	-6.590000e-002	-1.931457e-009
-6.579999999999903e-002	-6.580000e-002	-1.930156e-009
-6.569999999999902e-002	-6.570000e-002	-1.928853e-009
-6.559999999999902e-002	-6.560000e-002	-1.927547e-009
-6.549999999999902e-002	-6.550000e-002	-1.926238e-009
-6.539999999999901e-002	-6.540000e-002	-1.924926e-009
-6.529999999999901e-002	-6.530000e-002	-1.923611e-009
-6.519999999999901e-002	-6.520000e-002	-1.922293e-009
-6.509999999999901e-002	-6.510000e-002	-1.920972e-009
-6.499999999999900e-002	-6.500000e-002	-1.919649e-009
-6.489999999999900e-002	-6.490000e-002	-1.918322e-009
-6.479999999999900e-002	-6.480000e-002	-1.916993e-009
-6.469999999999899e-002	-6.470000e-002	-1.915660e-009
-6.459999999999899e-002	-6.460000e-002	-1.914325e-009
-6.449999999999899e-002	-6.450000e-002	-1.912987e-009
-6.439999999999899e-002	-6.440000e-002	-1.911646e-009
-6.429999999999898e-002	-6.430000e-002	-1.910301e-009
-6.419999999999898e-002	-6.420000e-002	-1.908954e-009
-6.409999999999898e-002	-6.410000e-002	-1.907604e-009
-6.399999999999897e-002	-6.400000e-002	-1.906251e-009
-6.389999999999897e-002	-6.390000e-002	-1.904895e-009
-6.379999999999897e-002	-6.380000e-002	-1.903536e-009
