v1	V(n001)	V(n002)	Id(M1)
Step Information: V2=-500m  (Run: 1/6)
-5.000000000000000e-001	-5.000000e-001	-5.000000e-001	-2.615809e-006
-9.999999999999998e-002	-1.000000e-001	-5.000000e-001	3.780069e-011
3.000000000000000e-001	3.000000e-001	-5.000000e-001	9.948774e-010
7.000000000000001e-001	7.000000e-001	-5.000000e-001	1.452520e-008
1.100000000000000e+000	1.100000e+000	-5.000000e-001	1.776777e-007
1.500000000000000e+000	1.500000e+000	-5.000000e-001	6.985046e-006
Step Information: V2=-100m  (Run: 2/6)
-5.000000000000000e-001	-5.000000e-001	-1.000000e-001	-2.176317e-004
-9.999999999999998e-002	-1.000000e-001	-1.000000e-001	-4.371641e-009
3.000000000000000e-001	3.000000e-001	-1.000000e-001	1.672434e-010
7.000000000000001e-001	7.000000e-001	-1.000000e-001	1.126897e-009
1.100000000000000e+000	1.100000e+000	-1.000000e-001	1.466005e-008
1.500000000000000e+000	1.500000e+000	-1.000000e-001	1.778161e-007
Step Information: V2=300m  (Run: 3/6)
-5.000000000000000e-001	-5.000000e-001	3.000000e-001	-1.753459e-003
-9.999999999999998e-002	-1.000000e-001	3.000000e-001	-4.709764e-005
3.000000000000000e-001	3.000000e-001	3.000000e-001	4.649985e-006
7.000000000000001e-001	7.000000e-001	3.000000e-001	4.751664e-006
1.100000000000000e+000	1.100000e+000	3.000000e-001	4.842541e-006
1.500000000000000e+000	1.500000e+000	3.000000e-001	4.941807e-006
Step Information: V2=700m  (Run: 4/6)
-5.000000000000000e-001	-5.000000e-001	7.000000e-001	-3.511925e-003
-9.999999999999998e-002	-1.000000e-001	7.000000e-001	-5.155156e-004
3.000000000000000e-001	3.000000e-001	7.000000e-001	6.605184e-004
7.000000000000001e-001	7.000000e-001	7.000000e-001	6.876359e-004
1.100000000000000e+000	1.100000e+000	7.000000e-001	6.943623e-004
1.500000000000000e+000	1.500000e+000	7.000000e-001	6.997902e-004
Step Information: V2=1.1  (Run: 5/6)
-5.000000000000000e-001	-5.000000e-001	1.100000e+000	-4.678387e-003
-9.999999999999998e-002	-1.000000e-001	1.100000e+000	-8.526492e-004
3.000000000000000e-001	3.000000e-001	1.100000e+000	1.818834e-003
7.000000000000001e-001	7.000000e-001	1.100000e+000	2.461052e-003
1.100000000000000e+000	1.100000e+000	1.100000e+000	2.498393e-003
1.500000000000000e+000	1.500000e+000	1.100000e+000	2.517953e-003
Step Information: V2=1.5  (Run: 6/6)
-5.000000000000000e-001	-5.000000e-001	1.500000e+000	-5.411382e-003
-9.999999999999998e-002	-1.000000e-001	1.500000e+000	-1.057492e-003
3.000000000000000e-001	3.000000e-001	1.500000e+000	2.573142e-003
7.000000000000001e-001	7.000000e-001	1.500000e+000	4.335643e-003
1.100000000000000e+000	1.100000e+000	1.500000e+000	4.635628e-003
1.500000000000000e+000	1.500000e+000	1.500000e+000	4.682633e-003
